T3EA4 2423:706 SEGGER J-Link V6.44a Log File (0000ms, 43605ms total)
T3EA4 2423:706 DLL Compiled: Mar  8 2019 17:31:48 (0000ms, 43605ms total)
T3EA4 2423:706 Logging started @ 2021-04-13 15:58 (0000ms, 43605ms total)
T3EA4 2423:706 JLINK_SetWarnOutHandler(...) (0000ms, 43605ms total)
T3EA4 2423:706 JLINK_OpenEx(...)
Firmware: J-Link V9 compiled Jun  2 2222 22:22:22
Hardware: V9.40
S/N: 59401308
Feature(s): GDB, RDI, FlashBP, FlashDL, JFlash, RDDI
TELNET listener socket opened on port 19021WEBSRV 
Starting webserver (0020ms, 43625ms total)
T3EA4 2423:706 WEBSRV Webserver running on local port 19080 (0020ms, 43625ms total)
T3EA4 2423:706   returns O.K. (0020ms, 43625ms total)
T3EA4 2423:726 JLINK_GetEmuCaps()  returns 0xB9FF7BBF (0000ms, 43625ms total)
T3EA4 2423:727 JLINK_TIF_GetAvailable(...) (0000ms, 43625ms total)
T3EA4 2423:727 JLINK_SetErrorOutHandler(...) (0000ms, 43625ms total)
T3EA4 2423:727 JLINK_ExecCommand("ProjectFile = "C:\Users\LIANMENG\Desktop\AX9-PROJECT\AX9_V1.00\APP\source\USER\JLinkSettings.ini"", ...).   returns 0x00 (0002ms, 43627ms total)
T3EA4 2423:729 JLINK_ExecCommand("Device = STM32F405ZGTx", ...). Device "STM32F405ZG" selected.  returns 0x00 (0002ms, 43629ms total)
T3EA4 2423:731 JLINK_ExecCommand("DisableConnectionTimeout", ...).   returns 0x01 (0000ms, 43629ms total)
T3EA4 2423:731 JLINK_GetHardwareVersion()  returns 0x16F30 (0000ms, 43629ms total)
T3EA4 2423:731 JLINK_GetDLLVersion()  returns 64401 (0000ms, 43629ms total)
T3EA4 2423:731 JLINK_GetFirmwareString(...) (0000ms, 43629ms total)
T3EA4 2423:731 JLINK_GetDLLVersion()  returns 64401 (0000ms, 43629ms total)
T3EA4 2423:731 JLINK_GetCompileDateTime() (0000ms, 43629ms total)
T3EA4 2423:731 JLINK_GetFirmwareString(...) (0000ms, 43629ms total)
T3EA4 2423:731 JLINK_GetHardwareVersion()  returns 0x16F30 (0000ms, 43629ms total)
T3EA4 2423:731 JLINK_TIF_Select(JLINKARM_TIF_SWD)  returns 0x00 (0001ms, 43630ms total)
T3EA4 2423:732 JLINK_SetSpeed(5000) (0000ms, 43630ms total)
T3EA4 2423:732 JLINK_GetId() >0x10B TIF>Found SW-DP with ID 0x2BA01477 >0x0D TIF> >0x28 TIF> >0x0D TIF> >0x28 TIF> >0x0D TIF> >0x28 TIF> >0x0D TIF> >0x28 TIF> >0x0D TIF> >0x21 TIF> >0x0D TIF> >0x28 TIF> >0x0D TIF> >0x28 TIF> >0x0D TIF> >0x28 TIF> >0x0D TIF> >0x21 TIF> >0x0D TIF> >0x21 TIF> >0x0D TIF> >0x28 TIF> >0x0D TIF> >0x21 TIF> >0x0D TIF> >0x21 TIF> >0x0D TIF> >0x28 TIF> >0x0D TIF> >0x21 TIF> >0x0D TIF> >0x21 TIF> >0x0D TIF> >0x28 TIF> >0x0D TIF> >0x21 TIF> >0x0D TIF> >0x21 TIF> >0x0D TIF>
 >0x28 TIF> >0x0D TIF> >0x21 TIF> >0x0D TIF> >0x21 TIF> >0x0D TIF> >0x28 TIF> >0x0D TIF> >0x21 TIF> >0x0D TIF> >0x21 TIF> >0x10B TIF>Found SW-DP with ID 0x2BA01477 >0x0D TIF> >0x28 TIF> >0x0D TIF> >0x28 TIF> >0x0D TIF> >0x28 TIF> >0x0D TIF> >0x28 TIF> >0x0D TIF> >0x21 TIF> >0x0D TIF> >0x28 TIF>Scanning AP map to find all available APs >0x0D TIF> >0x28 TIF> >0x0D TIF> >0x21 TIF> >0x0D TIF> >0x21 TIF> >0x0D TIF> >0x28 TIF> >0x0D TIF> >0x21 TIF> >0x0D TIF> >0x21 TIF>
AP[1]: Stopped AP scan as end of AP map has been reachedAP[0]: AHB-AP (IDR: 0x24770011)Iterating through AP map to find AHB-AP to use >0x42 TIF> >0x28 TIF> >0x0D TIF> >0x28 TIF> >0x0D TIF> >0x21 TIF> >0x0D TIF> >0x21 TIF> >0x42 TIF> >0x28 TIF> >0x0D TIF> >0x28 TIF> >0x0D TIF> >0x28 TIF> >0x0D TIF> >0x21 TIF> >0x0D TIF> >0x21 TIF>AP[0]: Core foundAP[0]: AHB-AP ROM base: 0xE00FF000 >0x0D TIF> >0x28 TIF> >0x0D TIF> >0x28 TIF> >0x0D TIF> >0x28 TIF> >0x0D TIF> >0x21 TIF> >0x0D TIF> >0x21 TIF>
CPUID register: 0x410FC241. Implementer code: 0x41 (ARM)Found Cortex-M4 r0p1, Little endian. -- Max. mem block: 0x00010FB0 -- CPU_ReadMem(4 bytes @ 0xE000EDF0) -- CPU_WriteMem(4 bytes @ 0xE000EDF0) -- CPU_ReadMem(4 bytes @ 0xE0002000)FPUnit: 6 code (BP) slots and 2 literal slots -- CPU_ReadMem(4 bytes @ 0xE000EDFC) -- CPU_WriteMem(4 bytes @ 0xE000EDFC) -- CPU_ReadMem(4 bytes @ 0xE0001000) -- CPU_WriteMem(4 bytes @ 0xE0001000) -- CPU_ReadMem(4 bytes @ 0xE000ED88) -- CPU_WriteMem(4 bytes @ 0xE000ED88)
 -- CPU_ReadMem(4 bytes @ 0xE000ED88) -- CPU_WriteMem(4 bytes @ 0xE000ED88)CoreSight components:ROMTbl[0] @ E00FF000 -- CPU_ReadMem(16 bytes @ 0xE00FF000) -- CPU_ReadMem(16 bytes @ 0xE000EFF0) -- CPU_ReadMem(16 bytes @ 0xE000EFE0)ROMTbl[0][0]: E000E000, CID: B105E00D, PID: 000BB00C SCS-M7 -- CPU_ReadMem(16 bytes @ 0xE0001FF0) -- CPU_ReadMem(16 bytes @ 0xE0001FE0)ROMTbl[0][1]: E0001000, CID: B105E00D, PID: 003BB002 DWT -- CPU_ReadMem(16 bytes @ 0xE0002FF0) -- CPU_ReadMem(16 bytes @ 0xE0002FE0)
ROMTbl[0][2]: E0002000, CID: B105E00D, PID: 002BB003 FPB -- CPU_ReadMem(16 bytes @ 0xE0000FF0) -- CPU_ReadMem(16 bytes @ 0xE0000FE0)ROMTbl[0][3]: E0000000, CID: B105E00D, PID: 003BB001 ITM -- CPU_ReadMem(16 bytes @ 0xE00FF010) -- CPU_ReadMem(16 bytes @ 0xE0040FF0) -- CPU_ReadMem(16 bytes @ 0xE0040FE0)ROMTbl[0][4]: E0040000, CID: B105900D, PID: 000BB9A1 TPIU -- CPU_ReadMem(16 bytes @ 0xE0041FF0) -- CPU_ReadMem(16 bytes @ 0xE0041FE0)ROMTbl[0][5]: E0041000, CID: B105900D, PID: 000BB925 ETM >0x0D TIF>
 >0x21 TIF>  returns 0x2BA01477 (0143ms, 43773ms total)
T3EA4 2423:875 JLINK_GetDLLVersion()  returns 64401 (0000ms, 43773ms total)
T3EA4 2423:875 JLINK_CORE_GetFound()  returns 0xE0000FF (0000ms, 43773ms total)
T3EA4 2423:875 JLINK_GetDebugInfo(0x100 = JLINKARM_ROM_TABLE_ADDR_INDEX) -- Value=0xE00FF000  returns 0x00 (0000ms, 43773ms total)
T3EA4 2423:875 JLINK_GetDebugInfo(0x100 = JLINKARM_ROM_TABLE_ADDR_INDEX) -- Value=0xE00FF000  returns 0x00 (0000ms, 43773ms total)
T3EA4 2423:875 JLINK_GetDebugInfo(0x101 = JLINKARM_DEBUG_INFO_ETM_ADDR_INDEX) -- Value=0xE0041000  returns 0x00 (0000ms, 43773ms total)
T3EA4 2423:876 JLINK_ReadMemEx(0xE0041FD0, 0x0020 Bytes, ..., Flags = 0x02000004) -- CPU_ReadMem(32 bytes @ 0xE0041FD0) - Data: 04 00 00 00 00 00 00 00 00 00 00 00 00 00 00 00 ...  returns 0x20 (0000ms, 43773ms total)
T3EA4 2423:876 JLINK_GetDebugInfo(0x102 = JLINKARM_DEBUG_INFO_MTB_ADDR_INDEX) -- Value=0x00000000  returns 0x00 (0000ms, 43773ms total)
T3EA4 2423:876 JLINK_GetDebugInfo(0x103 = JLINKARM_DEBUG_INFO_TPIU_ADDR_INDEX) -- Value=0xE0040000  returns 0x00 (0000ms, 43773ms total)
T3EA4 2423:877 JLINK_GetDebugInfo(0x104 = JLINKARM_DEBUG_INFO_ITM_ADDR_INDEX) -- Value=0xE0000000  returns 0x00 (0000ms, 43774ms total)
T3EA4 2423:877 JLINK_GetDebugInfo(0x105 = JLINKARM_DEBUG_INFO_DWT_ADDR_INDEX) -- Value=0xE0001000  returns 0x00 (0000ms, 43774ms total)
T3EA4 2423:877 JLINK_GetDebugInfo(0x106 = JLINKARM_DEBUG_INFO_FPB_ADDR_INDEX) -- Value=0xE0002000  returns 0x00 (0000ms, 43774ms total)
T3EA4 2423:877 JLINK_GetDebugInfo(0x107 = JLINKARM_DEBUG_INFO_NVIC_ADDR_INDEX) -- Value=0xE000E000  returns 0x00 (0000ms, 43774ms total)
T3EA4 2423:877 JLINK_GetDebugInfo(0x10C = JLINKARM_DEBUG_INFO_DBG_ADDR_INDEX) -- Value=0xE000EDF0  returns 0x00 (0000ms, 43774ms total)
T3EA4 2423:877 JLINK_GetDebugInfo(0x01 = Unknown) -- Value=0x00000001  returns 0x00 (0000ms, 43774ms total)
T3EA4 2423:877 JLINK_ReadMemU32(0xE000ED00, 0x0001 Items, ...) -- CPU_ReadMem(4 bytes @ 0xE000ED00) - Data: 41 C2 0F 41  returns 1 (0001ms, 43775ms total)
T3EA4 2423:878 JLINK_GetDebugInfo(0x10F = JLINKARM_DEBUG_INFO_HAS_CORTEX_M_SECURITY_EXT_INDEX) -- Value=0x00000000  returns 0x00 (0000ms, 43775ms total)
T3EA4 2423:878 JLINK_SetResetType(JLINKARM_CM3_RESET_TYPE_NORMAL)  returns JLINKARM_CM3_RESET_TYPE_NORMAL (0000ms, 43775ms total)
T3EA4 2423:878 JLINK_Reset() -- CPU is running -- CPU_WriteMem(4 bytes @ 0xE000EDF0) -- CPU is running -- CPU_WriteMem(4 bytes @ 0xE000EDFC)Reset: Halt core after reset via DEMCR.VC_CORERESET. >0x35 TIF>Reset: Reset device via AIRCR.SYSRESETREQ. -- CPU is running -- CPU_WriteMem(4 bytes @ 0xE000ED0C) >0x0D TIF> >0x28 TIF> -- CPU_ReadMem(4 bytes @ 0xE000EDF0) -- CPU_ReadMem(4 bytes @ 0xE000EDF0) -- CPU is running -- CPU_WriteMem(4 bytes @ 0xE000EDF0) -- CPU is running -- CPU_WriteMem(4 bytes @ 0xE000EDFC)
 -- CPU_ReadMem(4 bytes @ 0xE000EDF0) -- CPU_WriteMem(4 bytes @ 0xE0002000) -- CPU_ReadMem(4 bytes @ 0xE000EDFC) -- CPU_ReadMem(4 bytes @ 0xE0001000) (0064ms, 43839ms total)
T3EA4 2423:942 JLINK_ReadReg(R15 (PC))  returns 0x08000268 (0000ms, 43839ms total)
T3EA4 2423:942 JLINK_ReadReg(XPSR)  returns 0x01000000 (0000ms, 43839ms total)
T3EA4 2423:942 JLINK_Halt()  returns 0x00 (0000ms, 43839ms total)
T3EA4 2423:942 JLINK_ReadMemU32(0xE000EDF0, 0x0001 Items, ...) -- CPU_ReadMem(4 bytes @ 0xE000EDF0) - Data: 03 00 03 00  returns 1 (0001ms, 43840ms total)
T3EA4 2423:943 JLINK_WriteU32(0xE000EDF0, 0xA05F0003) -- CPU_WriteMem(4 bytes @ 0xE000EDF0)  returns 0 (0000ms, 43840ms total)
T3EA4 2423:943 JLINK_WriteU32(0xE000EDFC, 0x01000000) -- CPU_WriteMem(4 bytes @ 0xE000EDFC)  returns 0 (0000ms, 43840ms total)
T3EA4 2423:943 JLINK_GetHWStatus(...)  returns 0x00 (0001ms, 43841ms total)
T3EA4 2423:944 JLINK_GetNumBPUnits(Type = 0xFFFFFF00)  returns 0x06 (0000ms, 43841ms total)
T3EA4 2423:944 JLINK_GetNumBPUnits(Type = 0xF0)  returns 0x2000 (0000ms, 43841ms total)
T3EA4 2423:944 JLINK_GetNumWPUnits()  returns 0x04 (0000ms, 43841ms total)
T3EA4 2423:944 JLINK_GetSpeed()  returns 0xFA0 (0000ms, 43841ms total)
T3EA4 2423:944 JLINK_ReadMemU32(0xE000E004, 0x0001 Items, ...) -- CPU_ReadMem(4 bytes @ 0xE000E004) - Data: 02 00 00 00  returns 1 (0000ms, 43841ms total)
T3EA4 2423:944 JLINK_ReadMemU32(0xE000E004, 0x0001 Items, ...) -- CPU_ReadMem(4 bytes @ 0xE000E004) - Data: 02 00 00 00  returns 1 (0001ms, 43842ms total)
T3EA4 2423:945 JLINK_WriteMemEx(0xE0001000, 0x001C Bytes, ..., Flags = 0x02000004) - Data: 01 00 00 00 00 00 00 00 00 00 00 00 00 00 00 00 ... -- CPU_WriteMem(28 bytes @ 0xE0001000)  returns 0x1C (0001ms, 43843ms total)
T3EA4 2423:946 JLINK_ReadReg(R15 (PC))  returns 0x08000268 (0000ms, 43843ms total)
T3EA4 2423:946 JLINK_ReadReg(XPSR)  returns 0x01000000 (0000ms, 43843ms total)
T3EA4 2423:951 JLINK_ReadMemEx(0xE0001004, 0x0004 Bytes, ..., Flags = 0x02000000) - Data: 00 00 00 00  returns 0x04 (0000ms, 43843ms total)
T3EA4 2424:071 JLINK_SetResetType(JLINKARM_CM3_RESET_TYPE_NORMAL)  returns JLINKARM_CM3_RESET_TYPE_NORMAL (0000ms, 43843ms total)
T3EA4 2424:071 JLINK_Reset() -- CPU_WriteMem(4 bytes @ 0xE000EDF0) -- CPU_WriteMem(4 bytes @ 0xE000EDFC)Reset: Halt core after reset via DEMCR.VC_CORERESET. >0x35 TIF>Reset: Reset device via AIRCR.SYSRESETREQ. -- CPU_WriteMem(4 bytes @ 0xE000ED0C) >0x0D TIF> >0x28 TIF> -- CPU_ReadMem(4 bytes @ 0xE000EDF0) -- CPU_ReadMem(4 bytes @ 0xE000EDF0) -- CPU_WriteMem(4 bytes @ 0xE000EDF0) -- CPU_WriteMem(4 bytes @ 0xE000EDFC) -- CPU_ReadMem(4 bytes @ 0xE000EDF0) -- CPU_WriteMem(4 bytes @ 0xE0002000)
 -- CPU_ReadMem(4 bytes @ 0xE000EDFC) -- CPU_ReadMem(4 bytes @ 0xE0001000) (0069ms, 43912ms total)
T3EA4 2424:140 JLINK_ReadReg(R15 (PC))  returns 0x08000268 (0000ms, 43912ms total)
T3EA4 2424:140 JLINK_ReadReg(XPSR)  returns 0x01000000 (0000ms, 43912ms total)
T3EA4 2424:143 JLINK_ReadMemEx(0x08000268, 0x003C Bytes, ..., Flags = 0x02000000) -- CPU_ReadMem(128 bytes @ 0x08000240) -- Updating C cache (128 bytes @ 0x08000240) -- Read from C cache (60 bytes @ 0x08000268) - Data: 09 48 80 47 09 48 00 47 FE E7 FE E7 FE E7 FE E7 ...  returns 0x3C (0002ms, 43914ms total)
T3EA4 2424:145 JLINK_ReadMemEx(0x08000268, 0x0002 Bytes, ..., Flags = 0x02000000) -- Read from C cache (2 bytes @ 0x08000268) - Data: 09 48  returns 0x02 (0000ms, 43914ms total)
T3EA4 2424:145 JLINK_ReadMemEx(0x0800026A, 0x0002 Bytes, ..., Flags = 0x02000000) -- Read from C cache (2 bytes @ 0x0800026A) - Data: 80 47  returns 0x02 (0000ms, 43914ms total)
T3EA4 2424:146 JLINK_ReadMemEx(0x0800026A, 0x0002 Bytes, ..., Flags = 0x02000000) -- Read from C cache (2 bytes @ 0x0800026A) - Data: 80 47  returns 0x02 (0000ms, 43914ms total)
T3EA4 2424:146 JLINK_ReadMemEx(0x0800026C, 0x003C Bytes, ..., Flags = 0x02000000) -- Read from C cache (60 bytes @ 0x0800026C) - Data: 09 48 00 47 FE E7 FE E7 FE E7 FE E7 FE E7 FE E7 ...  returns 0x3C (0000ms, 43914ms total)
T3EA4 2424:146 JLINK_ReadMemEx(0x0800026C, 0x0002 Bytes, ..., Flags = 0x02000000) -- Read from C cache (2 bytes @ 0x0800026C) - Data: 09 48  returns 0x02 (0000ms, 43914ms total)
T3EA4 2426:376 JLINK_ReadMemEx(0x0800026C, 0x003C Bytes, ..., Flags = 0x02000000) -- Read from C cache (60 bytes @ 0x0800026C) - Data: 09 48 00 47 FE E7 FE E7 FE E7 FE E7 FE E7 FE E7 ...  returns 0x3C (0000ms, 43914ms total)
T3EA4 2426:376 JLINK_ReadMemEx(0x0800026C, 0x0002 Bytes, ..., Flags = 0x02000000) -- Read from C cache (2 bytes @ 0x0800026C) - Data: 09 48  returns 0x02 (0000ms, 43914ms total)
T3EA4 2426:376 JLINK_ReadMemEx(0x0800026E, 0x0002 Bytes, ..., Flags = 0x02000000) -- Read from C cache (2 bytes @ 0x0800026E) - Data: 00 47  returns 0x02 (0000ms, 43914ms total)
T3EA4 2427:072 JLINK_ReadReg(R0)  returns 0x00000000 (0000ms, 43914ms total)
T3EA4 2427:072 JLINK_ReadReg(R1)  returns 0x00000000 (0000ms, 43914ms total)
T3EA4 2427:072 JLINK_ReadReg(R2)  returns 0x00000000 (0000ms, 43914ms total)
T3EA4 2427:072 JLINK_ReadReg(R3)  returns 0x00000000 (0000ms, 43914ms total)
T3EA4 2427:072 JLINK_ReadReg(R4)  returns 0x00000000 (0000ms, 43914ms total)
T3EA4 2427:072 JLINK_ReadReg(R5)  returns 0x00000000 (0000ms, 43914ms total)
T3EA4 2427:072 JLINK_ReadReg(R6)  returns 0x00000000 (0000ms, 43914ms total)
T3EA4 2427:072 JLINK_ReadReg(R7)  returns 0x00000000 (0000ms, 43914ms total)
T3EA4 2427:072 JLINK_ReadReg(R8)  returns 0x00000000 (0000ms, 43914ms total)
T3EA4 2427:072 JLINK_ReadReg(R9)  returns 0x00000000 (0000ms, 43914ms total)
T3EA4 2427:072 JLINK_ReadReg(R10)  returns 0x00000000 (0000ms, 43914ms total)
T3EA4 2427:072 JLINK_ReadReg(R11)  returns 0x00000000 (0000ms, 43914ms total)
T3EA4 2427:072 JLINK_ReadReg(R12)  returns 0x00000000 (0000ms, 43914ms total)
T3EA4 2427:072 JLINK_ReadReg(R13 (SP))  returns 0x20005008 (0000ms, 43914ms total)
T3EA4 2427:072 JLINK_ReadReg(R14)  returns 0xFFFFFFFF (0000ms, 43914ms total)
T3EA4 2427:072 JLINK_ReadReg(R15 (PC))  returns 0x08000268 (0000ms, 43914ms total)
T3EA4 2427:072 JLINK_ReadReg(XPSR)  returns 0x01000000 (0000ms, 43914ms total)
T3EA4 2427:072 JLINK_ReadReg(MSP)  returns 0x20005008 (0000ms, 43914ms total)
T3EA4 2427:072 JLINK_ReadReg(PSP)  returns 0x00000000 (0000ms, 43914ms total)
T3EA4 2427:072 JLINK_ReadReg(CFBP)  returns 0x00000000 (0000ms, 43914ms total)
T3EA4 2427:072 JLINK_ReadReg(FPSCR)  returns 0x00000000 (0004ms, 43918ms total)
T3EA4 2427:076 JLINK_ReadReg(FPS0)  returns 0x00000000 (0000ms, 43918ms total)
T3EA4 2427:076 JLINK_ReadReg(FPS1)  returns 0x00000000 (0000ms, 43918ms total)
T3EA4 2427:076 JLINK_ReadReg(FPS2)  returns 0x00000000 (0000ms, 43918ms total)
T3EA4 2427:076 JLINK_ReadReg(FPS3)  returns 0x00000000 (0000ms, 43918ms total)
T3EA4 2427:076 JLINK_ReadReg(FPS4)  returns 0x00000000 (0000ms, 43918ms total)
T3EA4 2427:076 JLINK_ReadReg(FPS5)  returns 0x00000000 (0000ms, 43918ms total)
T3EA4 2427:076 JLINK_ReadReg(FPS6)  returns 0x00000000 (0000ms, 43918ms total)
T3EA4 2427:076 JLINK_ReadReg(FPS7)  returns 0x00000000 (0000ms, 43918ms total)
T3EA4 2427:076 JLINK_ReadReg(FPS8)  returns 0x00000000 (0000ms, 43918ms total)
T3EA4 2427:076 JLINK_ReadReg(FPS9)  returns 0x00000000 (0000ms, 43918ms total)
T3EA4 2427:076 JLINK_ReadReg(FPS10)  returns 0x00000000 (0000ms, 43918ms total)
T3EA4 2427:076 JLINK_ReadReg(FPS11)  returns 0x00000000 (0000ms, 43918ms total)
T3EA4 2427:076 JLINK_ReadReg(FPS12)  returns 0x00000000 (0000ms, 43918ms total)
T3EA4 2427:076 JLINK_ReadReg(FPS13)  returns 0x00000000 (0000ms, 43918ms total)
T3EA4 2427:076 JLINK_ReadReg(FPS14)  returns 0x00000000 (0000ms, 43918ms total)
T3EA4 2427:076 JLINK_ReadReg(FPS15)  returns 0x00000000 (0000ms, 43918ms total)
T3EA4 2427:076 JLINK_ReadReg(FPS16)  returns 0x00000000 (0000ms, 43918ms total)
T3EA4 2427:076 JLINK_ReadReg(FPS17)  returns 0x00000000 (0000ms, 43918ms total)
T3EA4 2427:076 JLINK_ReadReg(FPS18)  returns 0x00000000 (0000ms, 43918ms total)
T3EA4 2427:076 JLINK_ReadReg(FPS19)  returns 0x00000000 (0000ms, 43918ms total)
T3EA4 2427:076 JLINK_ReadReg(FPS20)  returns 0x00000000 (0000ms, 43918ms total)
T3EA4 2427:076 JLINK_ReadReg(FPS21)  returns 0x00000000 (0000ms, 43918ms total)
T3EA4 2427:076 JLINK_ReadReg(FPS22)  returns 0x00000000 (0000ms, 43918ms total)
T3EA4 2427:076 JLINK_ReadReg(FPS23)  returns 0x00000000 (0000ms, 43918ms total)
T3EA4 2427:076 JLINK_ReadReg(FPS24)  returns 0x00000000 (0000ms, 43918ms total)
T3EA4 2427:076 JLINK_ReadReg(FPS25)  returns 0x00000000 (0000ms, 43918ms total)
T3EA4 2427:076 JLINK_ReadReg(FPS26)  returns 0x00000000 (0000ms, 43918ms total)
T3EA4 2427:077 JLINK_ReadReg(FPS27)  returns 0x00000000 (0000ms, 43918ms total)
T3EA4 2427:077 JLINK_ReadReg(FPS28)  returns 0x00000000 (0000ms, 43918ms total)
T3EA4 2427:077 JLINK_ReadReg(FPS29)  returns 0x00000000 (0000ms, 43918ms total)
T3EA4 2427:077 JLINK_ReadReg(FPS30)  returns 0x00000000 (0000ms, 43918ms total)
T3EA4 2427:077 JLINK_ReadReg(FPS31)  returns 0x00000000 (0000ms, 43918ms total)
T3EA4 2427:083 JLINK_ReadMemEx(0x20002254, 0x0020 Bytes, ..., Flags = 0x02000000) -- CPU_ReadMem(64 bytes @ 0x20002240) -- Updating C cache (64 bytes @ 0x20002240) -- Read from C cache (32 bytes @ 0x20002254) - Data: 00 00 00 00 00 00 00 00 00 00 00 00 00 00 00 00 ...  returns 0x20 (0002ms, 43920ms total)
T3EA4 2427:088 JLINK_ReadMemEx(0x200000B0, 0x0004 Bytes, ..., Flags = 0x02000000) -- CPU_ReadMem(64 bytes @ 0x20000080) -- Updating C cache (64 bytes @ 0x20000080) -- Read from C cache (4 bytes @ 0x200000B0) - Data: 00 00 00 00  returns 0x04 (0001ms, 43921ms total)
T3EA4 2427:089 JLINK_ReadMemEx(0x200000B0, 0x0004 Bytes, ..., Flags = 0x02000000) -- Read from C cache (4 bytes @ 0x200000B0) - Data: 00 00 00 00  returns 0x04 (0000ms, 43921ms total)
T3EA4 2427:089 JLINK_ReadMemEx(0x200000B0, 0x0004 Bytes, ..., Flags = 0x02000000) -- Read from C cache (4 bytes @ 0x200000B0) - Data: 00 00 00 00  returns 0x04 (0000ms, 43921ms total)
T3EA4 2427:091 JLINK_ReadMemEx(0x200026DE, 0x0020 Bytes, ..., Flags = 0x02000000) -- CPU_ReadMem(64 bytes @ 0x200026C0) -- Updating C cache (64 bytes @ 0x200026C0) -- Read from C cache (32 bytes @ 0x200026DE) - Data: 68 04 02 08 03 E8 03 E8 03 E8 03 E8 BA 16 84 9F ...  returns 0x20 (0000ms, 43921ms total)
T3EA4 2427:093 JLINK_ReadMemEx(0x20000CC0, 0x0020 Bytes, ..., Flags = 0x02000000) -- CPU_ReadMem(64 bytes @ 0x20000CC0) -- Updating C cache (64 bytes @ 0x20000CC0) -- Read from C cache (32 bytes @ 0x20000CC0) - Data: 68 04 02 08 03 8B 04 22 03 B3 04 79 F5 16 00 00 ...  returns 0x20 (0002ms, 43923ms total)
T4218 2427:166 JLINK_ReadMemEx(0x08000268, 0x0002 Bytes, ..., Flags = 0x02000000) -- Read from C cache (2 bytes @ 0x08000268) - Data: 09 48  returns 0x02 (0000ms, 43923ms total)
T4218 2427:166 JLINK_SetBPEx(Addr = 0x0800A8C0, Type = 0xFFFFFFF2)  returns 0x00000001 (0000ms, 43923ms total)
T4218 2427:166 JLINK_Go() -- CPU_WriteMem(4 bytes @ 0xE0002000) -- CPU_ReadMem(4 bytes @ 0xE0001000) -- CPU_WriteMem(4 bytes @ 0xE0002008) -- CPU_WriteMem(4 bytes @ 0xE000200C) -- CPU_WriteMem(4 bytes @ 0xE0002010) -- CPU_WriteMem(4 bytes @ 0xE0002014) -- CPU_WriteMem(4 bytes @ 0xE0002018) -- CPU_WriteMem(4 bytes @ 0xE000201C) -- CPU_WriteMem(4 bytes @ 0xE0001004) (0003ms, 43926ms total)
T4218 2427:270 JLINK_IsHalted()  returns TRUE (0002ms, 43928ms total)
T4218 2427:272 JLINK_Halt()  returns 0x00 (0000ms, 43926ms total)
T4218 2427:272 JLINK_IsHalted()  returns TRUE (0000ms, 43926ms total)
T4218 2427:272 JLINK_IsHalted()  returns TRUE (0000ms, 43926ms total)
T4218 2427:272 JLINK_IsHalted()  returns TRUE (0000ms, 43926ms total)
T4218 2427:272 JLINK_ReadReg(R15 (PC))  returns 0x0800A8C0 (0000ms, 43926ms total)
T4218 2427:272 JLINK_ReadReg(XPSR)  returns 0x21000000 (0000ms, 43926ms total)
T4218 2427:272 JLINK_ClrBPEx(BPHandle = 0x00000001)  returns 0x00 (0000ms, 43926ms total)
T4218 2427:272 JLINK_ReadMemU32(0xE000ED30, 0x0001 Items, ...) -- CPU_ReadMem(4 bytes @ 0xE000ED30) - Data: 02 00 00 00  returns 1 (0000ms, 43926ms total)
T4218 2427:272 JLINK_ReadMemU32(0xE0001028, 0x0001 Items, ...) -- CPU_ReadMem(4 bytes @ 0xE0001028) - Data: 00 00 00 00  returns 1 (0001ms, 43927ms total)
T4218 2427:273 JLINK_ReadMemU32(0xE0001038, 0x0001 Items, ...) -- CPU_ReadMem(4 bytes @ 0xE0001038) - Data: 00 02 00 00  returns 1 (0000ms, 43927ms total)
T4218 2427:273 JLINK_ReadMemU32(0xE0001048, 0x0001 Items, ...) -- CPU_ReadMem(4 bytes @ 0xE0001048) - Data: 00 00 00 00  returns 1 (0001ms, 43928ms total)
T4218 2427:274 JLINK_ReadMemU32(0xE0001058, 0x0001 Items, ...) -- CPU_ReadMem(4 bytes @ 0xE0001058) - Data: 00 00 00 00  returns 1 (0000ms, 43928ms total)
T4218 2427:274 JLINK_ReadReg(R0)  returns 0x20004A08 (0000ms, 43928ms total)
T4218 2427:274 JLINK_ReadReg(R1)  returns 0x20004C08 (0000ms, 43928ms total)
T4218 2427:274 JLINK_ReadReg(R2)  returns 0x20004C08 (0000ms, 43928ms total)
T4218 2427:274 JLINK_ReadReg(R3)  returns 0x20004C08 (0000ms, 43928ms total)
T4218 2427:274 JLINK_ReadReg(R4)  returns 0x00000000 (0000ms, 43928ms total)
T4218 2427:274 JLINK_ReadReg(R5)  returns 0x200049A8 (0000ms, 43928ms total)
T4218 2427:274 JLINK_ReadReg(R6)  returns 0x00000000 (0000ms, 43928ms total)
T4218 2427:274 JLINK_ReadReg(R7)  returns 0x00000000 (0000ms, 43928ms total)
T4218 2427:274 JLINK_ReadReg(R8)  returns 0x00000000 (0000ms, 43928ms total)
T4218 2427:274 JLINK_ReadReg(R9)  returns 0x00000000 (0000ms, 43928ms total)
T4218 2427:274 JLINK_ReadReg(R10)  returns 0x0800B72C (0000ms, 43928ms total)
T4218 2427:274 JLINK_ReadReg(R11)  returns 0x00000000 (0000ms, 43928ms total)
T4218 2427:274 JLINK_ReadReg(R12)  returns 0x200049E8 (0000ms, 43928ms total)
T4218 2427:274 JLINK_ReadReg(R13 (SP))  returns 0x20005008 (0000ms, 43928ms total)
T4218 2427:274 JLINK_ReadReg(R14)  returns 0x08000257 (0000ms, 43928ms total)
T4218 2427:274 JLINK_ReadReg(R15 (PC))  returns 0x0800A8C0 (0000ms, 43928ms total)
T4218 2427:274 JLINK_ReadReg(XPSR)  returns 0x21000000 (0001ms, 43929ms total)
T4218 2427:275 JLINK_ReadReg(MSP)  returns 0x20005008 (0000ms, 43929ms total)
T4218 2427:275 JLINK_ReadReg(PSP)  returns 0x00000000 (0000ms, 43929ms total)
T4218 2427:275 JLINK_ReadReg(CFBP)  returns 0x04000000 (0000ms, 43929ms total)
T4218 2427:275 JLINK_ReadReg(FPSCR)  returns 0x03000000 (0003ms, 43932ms total)
T4218 2427:278 JLINK_ReadReg(FPS0)  returns 0x00000000 (0000ms, 43932ms total)
T4218 2427:278 JLINK_ReadReg(FPS1)  returns 0x00000000 (0000ms, 43932ms total)
T4218 2427:278 JLINK_ReadReg(FPS2)  returns 0x00000000 (0000ms, 43932ms total)
T4218 2427:278 JLINK_ReadReg(FPS3)  returns 0x00000000 (0000ms, 43932ms total)
T4218 2427:278 JLINK_ReadReg(FPS4)  returns 0x00000000 (0000ms, 43932ms total)
T4218 2427:278 JLINK_ReadReg(FPS5)  returns 0x00000000 (0000ms, 43932ms total)
T4218 2427:278 JLINK_ReadReg(FPS6)  returns 0x00000000 (0000ms, 43932ms total)
T4218 2427:278 JLINK_ReadReg(FPS7)  returns 0x00000000 (0000ms, 43932ms total)
T4218 2427:278 JLINK_ReadReg(FPS8)  returns 0x00000000 (0000ms, 43932ms total)
T4218 2427:278 JLINK_ReadReg(FPS9)  returns 0x00000000 (0000ms, 43932ms total)
T4218 2427:278 JLINK_ReadReg(FPS10)  returns 0x00000000 (0000ms, 43932ms total)
T4218 2427:278 JLINK_ReadReg(FPS11)  returns 0x00000000 (0000ms, 43932ms total)
T4218 2427:278 JLINK_ReadReg(FPS12)  returns 0x00000000 (0000ms, 43932ms total)
T4218 2427:278 JLINK_ReadReg(FPS13)  returns 0x00000000 (0000ms, 43932ms total)
T4218 2427:278 JLINK_ReadReg(FPS14)  returns 0x00000000 (0000ms, 43932ms total)
T4218 2427:278 JLINK_ReadReg(FPS15)  returns 0x00000000 (0000ms, 43932ms total)
T4218 2427:278 JLINK_ReadReg(FPS16)  returns 0x00000000 (0000ms, 43932ms total)
T4218 2427:278 JLINK_ReadReg(FPS17)  returns 0x00000000 (0000ms, 43932ms total)
T4218 2427:278 JLINK_ReadReg(FPS18)  returns 0x00000000 (0000ms, 43932ms total)
T4218 2427:278 JLINK_ReadReg(FPS19)  returns 0x00000000 (0000ms, 43932ms total)
T4218 2427:278 JLINK_ReadReg(FPS20)  returns 0x00000000 (0000ms, 43932ms total)
T4218 2427:278 JLINK_ReadReg(FPS21)  returns 0x00000000 (0000ms, 43932ms total)
T4218 2427:278 JLINK_ReadReg(FPS22)  returns 0x00000000 (0000ms, 43932ms total)
T4218 2427:278 JLINK_ReadReg(FPS23)  returns 0x00000000 (0000ms, 43932ms total)
T4218 2427:279 JLINK_ReadReg(FPS24)  returns 0x00000000 (0000ms, 43933ms total)
T4218 2427:279 JLINK_ReadReg(FPS25)  returns 0x00000000 (0000ms, 43933ms total)
T4218 2427:279 JLINK_ReadReg(FPS26)  returns 0x00000000 (0000ms, 43933ms total)
T4218 2427:279 JLINK_ReadReg(FPS27)  returns 0x00000000 (0000ms, 43933ms total)
T4218 2427:279 JLINK_ReadReg(FPS28)  returns 0x00000000 (0000ms, 43933ms total)
T4218 2427:279 JLINK_ReadReg(FPS29)  returns 0x00000000 (0000ms, 43933ms total)
T4218 2427:279 JLINK_ReadReg(FPS30)  returns 0x00000000 (0000ms, 43933ms total)
T4218 2427:279 JLINK_ReadReg(FPS31)  returns 0x00000000 (0000ms, 43933ms total)
T3EA4 2427:280 JLINK_ReadMemEx(0x0800A8C0, 0x003C Bytes, ..., Flags = 0x02000000) -- CPU_ReadMem(64 bytes @ 0x0800A8C0) -- Updating C cache (64 bytes @ 0x0800A8C0) -- Read from C cache (60 bytes @ 0x0800A8C0) - Data: 38 B5 00 24 F6 F7 06 FD FD F7 42 FD 68 46 F8 F7 ...  returns 0x3C (0001ms, 43934ms total)
T3EA4 2427:281 JLINK_ReadMemEx(0x0800A8C0, 0x0002 Bytes, ..., Flags = 0x02000000) -- Read from C cache (2 bytes @ 0x0800A8C0) - Data: 38 B5  returns 0x02 (0000ms, 43934ms total)
T3EA4 2427:281 JLINK_ReadMemEx(0x0800A8C2, 0x0002 Bytes, ..., Flags = 0x02000000) -- Read from C cache (2 bytes @ 0x0800A8C2) - Data: 00 24  returns 0x02 (0000ms, 43934ms total)
T4218 2428:591 JLINK_ReadMemEx(0x0800A8C0, 0x0002 Bytes, ..., Flags = 0x02000000) -- Read from C cache (2 bytes @ 0x0800A8C0) - Data: 38 B5  returns 0x02 (0000ms, 43934ms total)
T4218 2428:591 JLINK_Go() -- CPU_ReadMem(4 bytes @ 0xE0001000) -- CPU_WriteMem(4 bytes @ 0xE0002008) (0002ms, 43936ms total)
T4218 2428:694 JLINK_IsHalted()  returns FALSE (0000ms, 43936ms total)
T4218 2428:795 JLINK_IsHalted()  returns FALSE (0000ms, 43936ms total)
T4218 2428:896 JLINK_IsHalted()  returns FALSE (0001ms, 43937ms total)
T4218 2428:998 JLINK_IsHalted()  returns FALSE (0000ms, 43936ms total)
T4218 2429:099 JLINK_ReadMemU32(0xE0001004, 0x0001 Items, ...) -- CPU_ReadMem(4 bytes @ 0xE0001004) - Data: 7A 2F AE 03  returns 1 (0000ms, 43936ms total)
T4218 2429:100 JLINK_IsHalted()  returns FALSE (0002ms, 43938ms total)
T4218 2429:202 JLINK_IsHalted()  returns FALSE (0001ms, 43937ms total)
T4218 2429:303 JLINK_IsHalted()  returns FALSE (0000ms, 43936ms total)
T4218 2429:404 JLINK_IsHalted()  returns FALSE (0001ms, 43937ms total)
T4218 2429:506 JLINK_IsHalted()  returns FALSE (0000ms, 43936ms total)
T4218 2429:607 JLINK_IsHalted()  returns FALSE (0000ms, 43936ms total)
T4218 2429:708 JLINK_ReadMemU32(0xE0001004, 0x0001 Items, ...) - Data: 7A 2F AE 03  returns 1 (0000ms, 43936ms total)
T4218 2429:709 JLINK_IsHalted()  returns FALSE (0000ms, 43936ms total)
T4218 2429:811 JLINK_IsHalted()  returns FALSE (0000ms, 43936ms total)
T4218 2429:912 JLINK_IsHalted()  returns FALSE (0001ms, 43937ms total)
T4218 2430:014 JLINK_IsHalted()  returns FALSE (0001ms, 43937ms total)
T4218 2430:116 JLINK_IsHalted()  returns FALSE (0000ms, 43936ms total)
T4218 2430:218 JLINK_IsHalted()  returns FALSE (0000ms, 43936ms total)
T4218 2430:319 JLINK_ReadMemU32(0xE0001004, 0x0001 Items, ...) - Data: 7A 2F AE 03  returns 1 (0000ms, 43936ms total)
T4218 2430:323 JLINK_IsHalted()  returns FALSE (0001ms, 43937ms total)
T4218 2430:424 JLINK_IsHalted()  returns FALSE (0001ms, 43937ms total)
T4218 2430:525 JLINK_IsHalted()  returns FALSE (0000ms, 43936ms total)
T4218 2430:627 JLINK_IsHalted()  returns FALSE (0000ms, 43936ms total)
T4218 2430:728 JLINK_IsHalted()  returns FALSE (0001ms, 43937ms total)
T4218 2430:830 JLINK_IsHalted()  returns FALSE (0000ms, 43936ms total)
T4218 2430:931 JLINK_ReadMemU32(0xE0001004, 0x0001 Items, ...) - Data: 7A 2F AE 03  returns 1 (0000ms, 43936ms total)
T4218 2430:933 JLINK_IsHalted()  returns FALSE (0001ms, 43937ms total)
T4218 2431:035 JLINK_IsHalted()  returns FALSE (0000ms, 43936ms total)
T4218 2431:136 JLINK_IsHalted()  returns FALSE (0000ms, 43936ms total)
T4218 2431:237 JLINK_IsHalted()  returns FALSE (0000ms, 43936ms total)
T4218 2431:338 JLINK_IsHalted()  returns FALSE (0000ms, 43936ms total)
T4218 2431:439 JLINK_IsHalted()  returns FALSE (0000ms, 43936ms total)
T4218 2431:541 JLINK_ReadMemU32(0xE0001004, 0x0001 Items, ...) - Data: 7A 2F AE 03  returns 1 (0000ms, 43936ms total)
T4218 2431:541 JLINK_IsHalted()  returns FALSE (0001ms, 43937ms total)
T4218 2431:642 JLINK_IsHalted()  returns FALSE (0000ms, 43936ms total)
T4218 2431:743 JLINK_IsHalted()  returns FALSE (0001ms, 43937ms total)
T4218 2431:845 JLINK_IsHalted()  returns FALSE (0000ms, 43936ms total)
T4218 2431:946 JLINK_IsHalted()  returns FALSE (0000ms, 43936ms total)
T4218 2432:047 JLINK_IsHalted()  returns FALSE (0000ms, 43936ms total)
T4218 2432:149 JLINK_ReadMemU32(0xE0001004, 0x0001 Items, ...) - Data: 7A 2F AE 03  returns 1 (0000ms, 43936ms total)
T4218 2432:164 JLINK_IsHalted()  returns FALSE (0001ms, 43937ms total)
T4218 2432:265 JLINK_IsHalted()  returns FALSE (0000ms, 43936ms total)
T4218 2432:366 JLINK_IsHalted()  returns FALSE (0001ms, 43937ms total)
T4218 2432:468 JLINK_IsHalted()  returns FALSE (0000ms, 43936ms total)
T4218 2432:569 JLINK_IsHalted()  returns FALSE (0000ms, 43936ms total)
T4218 2432:670 JLINK_ReadMemU32(0xE0001004, 0x0001 Items, ...) - Data: 7A 2F AE 03  returns 1 (0000ms, 43936ms total)
T4218 2432:670 JLINK_IsHalted()  returns FALSE (0000ms, 43936ms total)
T4218 2432:771 JLINK_IsHalted()  returns FALSE (0001ms, 43937ms total)
T4218 2432:872 JLINK_IsHalted()  returns FALSE (0000ms, 43936ms total)
T4218 2432:973 JLINK_IsHalted()  returns FALSE (0000ms, 43936ms total)
T4218 2433:074 JLINK_IsHalted()  returns FALSE (0001ms, 43937ms total)
T4218 2433:176 JLINK_IsHalted()  returns FALSE (0000ms, 43936ms total)
T4218 2433:276 JLINK_ReadMemU32(0xE0001004, 0x0001 Items, ...) - Data: 7A 2F AE 03  returns 1 (0000ms, 43936ms total)
T4218 2433:278 JLINK_IsHalted()  returns FALSE (0002ms, 43938ms total)
T4218 2433:381 JLINK_IsHalted()  returns FALSE (0001ms, 43937ms total)
T4218 2433:483 JLINK_IsHalted()  returns FALSE (0000ms, 43936ms total)
T4218 2433:583 JLINK_IsHalted()  returns FALSE (0000ms, 43936ms total)
T4218 2433:684 JLINK_IsHalted()  returns FALSE (0001ms, 43937ms total)
T4218 2433:786 JLINK_IsHalted()  returns FALSE (0000ms, 43936ms total)
T4218 2433:887 JLINK_ReadMemU32(0xE0001004, 0x0001 Items, ...) - Data: 7A 2F AE 03  returns 1 (0000ms, 43936ms total)
T4218 2433:887 JLINK_IsHalted()  returns FALSE (0001ms, 43937ms total)
T4218 2433:989 JLINK_IsHalted()  returns FALSE (0000ms, 43936ms total)
T4218 2434:090 JLINK_IsHalted()  returns FALSE (0000ms, 43936ms total)
T4218 2434:191 JLINK_IsHalted()  returns FALSE (0000ms, 43936ms total)
T4218 2434:292 JLINK_IsHalted()  returns FALSE (0000ms, 43936ms total)
T4218 2434:393 JLINK_IsHalted()  returns FALSE (0000ms, 43936ms total)
T4218 2434:494 JLINK_ReadMemU32(0xE0001004, 0x0001 Items, ...) - Data: 7A 2F AE 03  returns 1 (0000ms, 43936ms total)
T4218 2434:496 JLINK_IsHalted()  returns FALSE (0001ms, 43937ms total)
T4218 2434:598 JLINK_IsHalted()  returns FALSE (0000ms, 43936ms total)
T4218 2434:699 JLINK_IsHalted()  returns FALSE (0001ms, 43937ms total)
T4218 2434:801 JLINK_IsHalted()  returns FALSE (0000ms, 43936ms total)
T4218 2434:902 JLINK_IsHalted()  returns FALSE (0000ms, 43936ms total)
T4218 2435:003 JLINK_IsHalted()  returns FALSE (0000ms, 43936ms total)
T4218 2435:105 JLINK_ReadMemU32(0xE0001004, 0x0001 Items, ...) - Data: 7A 2F AE 03  returns 1 (0000ms, 43936ms total)
T4218 2435:106 JLINK_IsHalted()  returns FALSE (0000ms, 43936ms total)
T4218 2435:208 JLINK_IsHalted()  returns FALSE (0001ms, 43937ms total)
T4218 2435:309 JLINK_IsHalted()  returns FALSE (0000ms, 43936ms total)
T4218 2435:410 JLINK_IsHalted()  returns FALSE (0000ms, 43936ms total)
T4218 2435:511 JLINK_IsHalted()  returns FALSE (0000ms, 43936ms total)
T4218 2435:612 JLINK_IsHalted()  returns FALSE (0000ms, 43936ms total)
T4218 2435:713 JLINK_ReadMemU32(0xE0001004, 0x0001 Items, ...) - Data: 7A 2F AE 03  returns 1 (0000ms, 43936ms total)
T4218 2435:713 JLINK_IsHalted()  returns FALSE (0000ms, 43936ms total)
T4218 2435:814 JLINK_IsHalted()  returns FALSE (0000ms, 43936ms total)
T4218 2435:915 JLINK_IsHalted()  returns FALSE (0001ms, 43937ms total)
T3EA4 2435:938 JLINK_SetBPEx(Addr = 0x0800A782, Type = 0xFFFFFFF2) -- CPU is running -- CPU is running -- CPU_WriteMem(4 bytes @ 0xE0002000) -- CPU is running -- CPU_WriteMem(4 bytes @ 0xE0002008)  returns 0x00000002 (0001ms, 43937ms total)
T4218 2436:016 JLINK_IsHalted()  returns TRUE (0003ms, 43940ms total)
T4218 2436:019 JLINK_Halt()  returns 0x00 (0000ms, 43937ms total)
T4218 2436:019 JLINK_IsHalted()  returns TRUE (0000ms, 43937ms total)
T4218 2436:019 JLINK_IsHalted()  returns TRUE (0000ms, 43937ms total)
T4218 2436:019 JLINK_IsHalted()  returns TRUE (0000ms, 43937ms total)
T4218 2436:019 JLINK_ReadReg(R15 (PC))  returns 0x0800A782 (0000ms, 43937ms total)
T4218 2436:019 JLINK_ReadReg(XPSR)  returns 0x81000000 (0000ms, 43937ms total)
T4218 2436:019 JLINK_ClrBPEx(BPHandle = 0x00000002)  returns 0x00 (0001ms, 43938ms total)
T4218 2436:020 JLINK_ReadMemU32(0xE000ED30, 0x0001 Items, ...) -- CPU_ReadMem(4 bytes @ 0xE000ED30) - Data: 02 00 00 00  returns 1 (0001ms, 43939ms total)
T4218 2436:021 JLINK_ReadMemU32(0xE0001028, 0x0001 Items, ...) -- CPU_ReadMem(4 bytes @ 0xE0001028) - Data: 00 00 00 00  returns 1 (0000ms, 43939ms total)
T4218 2436:022 JLINK_ReadMemU32(0xE0001038, 0x0001 Items, ...) -- CPU_ReadMem(4 bytes @ 0xE0001038) - Data: 00 02 00 00  returns 1 (0000ms, 43939ms total)
T4218 2436:022 JLINK_ReadMemU32(0xE0001048, 0x0001 Items, ...) -- CPU_ReadMem(4 bytes @ 0xE0001048) - Data: 00 00 00 00  returns 1 (0001ms, 43940ms total)
T4218 2436:023 JLINK_ReadMemU32(0xE0001058, 0x0001 Items, ...) -- CPU_ReadMem(4 bytes @ 0xE0001058) - Data: 00 00 00 00  returns 1 (0001ms, 43941ms total)
T4218 2436:024 JLINK_ReadReg(R0)  returns 0x00000000 (0000ms, 43941ms total)
T4218 2436:024 JLINK_ReadReg(R1)  returns 0x20001C08 (0000ms, 43941ms total)
T4218 2436:024 JLINK_ReadReg(R2)  returns 0x00000401 (0000ms, 43941ms total)
T4218 2436:024 JLINK_ReadReg(R3)  returns 0xFFFFF81C (0000ms, 43941ms total)
T4218 2436:024 JLINK_ReadReg(R4)  returns 0x200003D0 (0000ms, 43941ms total)
T4218 2436:025 JLINK_ReadReg(R5)  returns 0x00000000 (0000ms, 43941ms total)
T4218 2436:025 JLINK_ReadReg(R6)  returns 0x48323760 (0000ms, 43941ms total)
T4218 2436:025 JLINK_ReadReg(R7)  returns 0x0000518D (0000ms, 43941ms total)
T4218 2436:025 JLINK_ReadReg(R8)  returns 0x00000000 (0000ms, 43941ms total)
T4218 2436:025 JLINK_ReadReg(R9)  returns 0x09090909 (0000ms, 43941ms total)
T4218 2436:025 JLINK_ReadReg(R10)  returns 0x10101010 (0000ms, 43941ms total)
T4218 2436:025 JLINK_ReadReg(R11)  returns 0x11111111 (0000ms, 43941ms total)
T4218 2436:025 JLINK_ReadReg(R12)  returns 0x000007FE (0000ms, 43941ms total)
T4218 2436:025 JLINK_ReadReg(R13 (SP))  returns 0x20004290 (0000ms, 43941ms total)
T4218 2436:025 JLINK_ReadReg(R14)  returns 0x0800090B (0000ms, 43941ms total)
T4218 2436:025 JLINK_ReadReg(R15 (PC))  returns 0x0800A782 (0000ms, 43941ms total)
T4218 2436:025 JLINK_ReadReg(XPSR)  returns 0x81000000 (0000ms, 43941ms total)
T4218 2436:025 JLINK_ReadReg(MSP)  returns 0x20003608 (0000ms, 43941ms total)
T4218 2436:025 JLINK_ReadReg(PSP)  returns 0x20004290 (0001ms, 43942ms total)
T4218 2436:026 JLINK_ReadReg(CFBP)  returns 0x06000000 (0000ms, 43942ms total)
T4218 2436:026 JLINK_ReadReg(FPSCR)  returns 0x00000000 (0004ms, 43946ms total)
T4218 2436:030 JLINK_ReadReg(FPS0)  returns 0x00000000 (0000ms, 43946ms total)
T4218 2436:030 JLINK_ReadReg(FPS1)  returns 0x40590000 (0000ms, 43946ms total)
T4218 2436:030 JLINK_ReadReg(FPS2)  returns 0x00000002 (0000ms, 43946ms total)
T4218 2436:030 JLINK_ReadReg(FPS3)  returns 0x00000003 (0000ms, 43946ms total)
T4218 2436:030 JLINK_ReadReg(FPS4)  returns 0x00000004 (0000ms, 43946ms total)
T4218 2436:030 JLINK_ReadReg(FPS5)  returns 0x00000005 (0000ms, 43946ms total)
T4218 2436:030 JLINK_ReadReg(FPS6)  returns 0x00000006 (0000ms, 43946ms total)
T4218 2436:030 JLINK_ReadReg(FPS7)  returns 0x00000007 (0000ms, 43946ms total)
T4218 2436:030 JLINK_ReadReg(FPS8)  returns 0x00000008 (0000ms, 43946ms total)
T4218 2436:030 JLINK_ReadReg(FPS9)  returns 0x00000009 (0000ms, 43946ms total)
T4218 2436:030 JLINK_ReadReg(FPS10)  returns 0x00000010 (0000ms, 43946ms total)
T4218 2436:031 JLINK_ReadReg(FPS11)  returns 0x00000011 (0000ms, 43946ms total)
T4218 2436:031 JLINK_ReadReg(FPS12)  returns 0x00000012 (0000ms, 43946ms total)
T4218 2436:031 JLINK_ReadReg(FPS13)  returns 0x00000013 (0000ms, 43946ms total)
T4218 2436:031 JLINK_ReadReg(FPS14)  returns 0x00000014 (0000ms, 43946ms total)
T4218 2436:031 JLINK_ReadReg(FPS15)  returns 0x00000015 (0000ms, 43946ms total)
T4218 2436:031 JLINK_ReadReg(FPS16)  returns 0x00000016 (0000ms, 43946ms total)
T4218 2436:031 JLINK_ReadReg(FPS17)  returns 0x00000017 (0000ms, 43946ms total)
T4218 2436:031 JLINK_ReadReg(FPS18)  returns 0x00000018 (0000ms, 43946ms total)
T4218 2436:031 JLINK_ReadReg(FPS19)  returns 0x00000019 (0000ms, 43946ms total)
T4218 2436:031 JLINK_ReadReg(FPS20)  returns 0x00000020 (0000ms, 43946ms total)
T4218 2436:031 JLINK_ReadReg(FPS21)  returns 0x00000021 (0000ms, 43946ms total)
T4218 2436:031 JLINK_ReadReg(FPS22)  returns 0x00000022 (0000ms, 43946ms total)
T4218 2436:031 JLINK_ReadReg(FPS23)  returns 0x00000023 (0000ms, 43946ms total)
T4218 2436:032 JLINK_ReadReg(FPS24)  returns 0x00000024 (0000ms, 43946ms total)
T4218 2436:032 JLINK_ReadReg(FPS25)  returns 0x00000025 (0000ms, 43946ms total)
T4218 2436:032 JLINK_ReadReg(FPS26)  returns 0x00000026 (0000ms, 43946ms total)
T4218 2436:032 JLINK_ReadReg(FPS27)  returns 0x00000027 (0000ms, 43946ms total)
T4218 2436:032 JLINK_ReadReg(FPS28)  returns 0x00000028 (0000ms, 43946ms total)
T4218 2436:032 JLINK_ReadReg(FPS29)  returns 0x00000029 (0000ms, 43946ms total)
T4218 2436:032 JLINK_ReadReg(FPS30)  returns 0x00000030 (0000ms, 43946ms total)
T4218 2436:032 JLINK_ReadReg(FPS31)  returns 0x00000031 (0000ms, 43946ms total)
T3EA4 2436:037 JLINK_ReadMemEx(0x0800A782, 0x0002 Bytes, ..., Flags = 0x02000000) -- CPU_ReadMem(64 bytes @ 0x0800A780) -- Updating C cache (64 bytes @ 0x0800A780) -- Read from C cache (2 bytes @ 0x0800A782) - Data: 4D 48  returns 0x02 (0001ms, 43948ms total)
T3EA4 2436:038 JLINK_ReadMemEx(0x0800A784, 0x003C Bytes, ..., Flags = 0x02000000) -- Read from C cache (60 bytes @ 0x0800A784) - Data: 80 78 00 28 48 D0 4B 48 80 8B 4A 49 C9 89 88 42 ...  returns 0x3C (0000ms, 43948ms total)
T3EA4 2436:038 JLINK_ReadMemEx(0x0800A784, 0x0002 Bytes, ..., Flags = 0x02000000) -- Read from C cache (2 bytes @ 0x0800A784) - Data: 80 78  returns 0x02 (0000ms, 43948ms total)
T3EA4 2436:038 JLINK_ReadMemEx(0x0800A784, 0x003C Bytes, ..., Flags = 0x02000000) -- Read from C cache (60 bytes @ 0x0800A784) - Data: 80 78 00 28 48 D0 4B 48 80 8B 4A 49 C9 89 88 42 ...  returns 0x3C (0000ms, 43948ms total)
T3EA4 2436:038 JLINK_ReadMemEx(0x0800A784, 0x0002 Bytes, ..., Flags = 0x02000000) -- Read from C cache (2 bytes @ 0x0800A784) - Data: 80 78  returns 0x02 (0000ms, 43948ms total)
T3EA4 2436:038 JLINK_ReadMemEx(0x0800A786, 0x0002 Bytes, ..., Flags = 0x02000000) -- Read from C cache (2 bytes @ 0x0800A786) - Data: 00 28  returns 0x02 (0001ms, 43949ms total)
T3EA4 2436:039 JLINK_ReadMemEx(0x0800A786, 0x0002 Bytes, ..., Flags = 0x02000000) -- Read from C cache (2 bytes @ 0x0800A786) - Data: 00 28  returns 0x02 (0000ms, 43949ms total)
T3EA4 2436:039 JLINK_ReadMemEx(0x0800A788, 0x003C Bytes, ..., Flags = 0x02000000) -- CPU_ReadMem(64 bytes @ 0x0800A7C0) -- Updating C cache (64 bytes @ 0x0800A7C0) -- Read from C cache (60 bytes @ 0x0800A788) - Data: 48 D0 4B 48 80 8B 4A 49 C9 89 88 42 34 DB 48 48 ...  returns 0x3C (0001ms, 43950ms total)
T3EA4 2436:040 JLINK_ReadMemEx(0x0800A788, 0x0002 Bytes, ..., Flags = 0x02000000) -- Read from C cache (2 bytes @ 0x0800A788) - Data: 48 D0  returns 0x02 (0000ms, 43950ms total)
T3EA4 2437:645 JLINK_ReadMemEx(0x20000013, 0x0001 Bytes, ..., Flags = 0x02000000) -- CPU_ReadMem(64 bytes @ 0x20000000) -- Updating C cache (64 bytes @ 0x20000000) -- Read from C cache (1 bytes @ 0x20000013) - Data: 00  returns 0x01 (0001ms, 43951ms total)
T4218 2440:658 JLINK_ReadMemEx(0x0800A782, 0x0002 Bytes, ..., Flags = 0x02000000) -- Read from C cache (2 bytes @ 0x0800A782) - Data: 4D 48  returns 0x02 (0000ms, 43951ms total)
T4218 2440:658 JLINK_Go() -- CPU_ReadMem(4 bytes @ 0xE0001000) -- CPU_WriteMem(4 bytes @ 0xE0002008) (0002ms, 43953ms total)
T4218 2440:761 JLINK_IsHalted()  returns FALSE (0000ms, 43953ms total)
T4218 2440:863 JLINK_IsHalted()  returns FALSE (0000ms, 43953ms total)
T4218 2440:964 JLINK_IsHalted()  returns FALSE (0000ms, 43953ms total)
T4218 2441:064 JLINK_IsHalted()  returns FALSE (0000ms, 43953ms total)
T4218 2441:166 JLINK_ReadMemU32(0xE0001004, 0x0001 Items, ...) -- CPU_ReadMem(4 bytes @ 0xE0001004) - Data: 10 81 43 4D  returns 1 (0000ms, 43953ms total)
T4218 2441:166 JLINK_IsHalted()  returns FALSE (0000ms, 43953ms total)
T4218 2441:267 JLINK_IsHalted()  returns FALSE (0001ms, 43954ms total)
T4218 2441:369 JLINK_IsHalted()  returns FALSE (0000ms, 43953ms total)
T4218 2441:470 JLINK_IsHalted()  returns FALSE (0000ms, 43953ms total)
T4218 2441:571 JLINK_IsHalted()  returns FALSE (0000ms, 43953ms total)
T4218 2441:672 JLINK_IsHalted()  returns FALSE (0001ms, 43954ms total)
T4218 2441:774 JLINK_ReadMemU32(0xE0001004, 0x0001 Items, ...) - Data: 10 81 43 4D  returns 1 (0000ms, 43953ms total)
T4218 2441:774 JLINK_IsHalted()  returns FALSE (0001ms, 43954ms total)
T4218 2441:875 JLINK_IsHalted()  returns FALSE (0000ms, 43953ms total)
T4218 2441:976 JLINK_IsHalted()  returns FALSE (0000ms, 43953ms total)
T4218 2442:077 JLINK_IsHalted()  returns FALSE (0000ms, 43953ms total)
T4218 2442:178 JLINK_IsHalted()  returns FALSE (0000ms, 43953ms total)
T4218 2442:279 JLINK_IsHalted()  returns FALSE (0000ms, 43953ms total)
T4218 2442:380 JLINK_ReadMemU32(0xE0001004, 0x0001 Items, ...) - Data: 10 81 43 4D  returns 1 (0000ms, 43953ms total)
T4218 2442:382 JLINK_IsHalted()  returns FALSE (0002ms, 43955ms total)
T4218 2442:485 JLINK_IsHalted()  returns FALSE (0001ms, 43954ms total)
T4218 2442:587 JLINK_IsHalted()  returns FALSE (0000ms, 43953ms total)
T4218 2442:688 JLINK_IsHalted()  returns FALSE (0000ms, 43953ms total)
T4218 2442:789 JLINK_IsHalted()  returns FALSE (0000ms, 43953ms total)
T4218 2442:890 JLINK_IsHalted()  returns FALSE (0001ms, 43954ms total)
T4218 2442:991 JLINK_ReadMemU32(0xE0001004, 0x0001 Items, ...) - Data: 10 81 43 4D  returns 1 (0001ms, 43954ms total)
T4218 2442:992 JLINK_IsHalted()  returns FALSE (0001ms, 43955ms total)
T4218 2443:094 JLINK_IsHalted()  returns FALSE (0000ms, 43954ms total)
T4218 2443:195 JLINK_IsHalted()  returns FALSE (0000ms, 43954ms total)
T4218 2443:296 JLINK_IsHalted()  returns FALSE (0001ms, 43955ms total)
T4218 2443:397 JLINK_IsHalted()  returns FALSE (0000ms, 43954ms total)
T4218 2443:498 JLINK_IsHalted()  returns FALSE (0001ms, 43955ms total)
T4218 2443:599 JLINK_ReadMemU32(0xE0001004, 0x0001 Items, ...) - Data: 10 81 43 4D  returns 1 (0000ms, 43954ms total)
T4218 2443:600 JLINK_IsHalted()  returns FALSE (0001ms, 43955ms total)
T4218 2443:701 JLINK_IsHalted()  returns FALSE (0001ms, 43955ms total)
T4218 2443:803 JLINK_IsHalted()  returns FALSE (0000ms, 43954ms total)
T4218 2443:904 JLINK_IsHalted()  returns FALSE (0000ms, 43954ms total)
T4218 2444:005 JLINK_IsHalted()  returns FALSE (0001ms, 43955ms total)
T4218 2444:106 JLINK_IsHalted()  returns FALSE (0001ms, 43955ms total)
T4218 2444:207 JLINK_ReadMemU32(0xE0001004, 0x0001 Items, ...) - Data: 10 81 43 4D  returns 1 (0000ms, 43954ms total)
T4218 2444:211 JLINK_IsHalted()  returns FALSE (0001ms, 43955ms total)
T4218 2444:312 JLINK_IsHalted()  returns FALSE (0000ms, 43954ms total)
T4218 2444:413 JLINK_IsHalted()  returns FALSE (0000ms, 43954ms total)
T4218 2444:514 JLINK_IsHalted()  returns FALSE (0000ms, 43954ms total)
T4218 2444:615 JLINK_IsHalted()  returns FALSE (0000ms, 43954ms total)
T4218 2444:716 JLINK_ReadMemU32(0xE0001004, 0x0001 Items, ...) - Data: 10 81 43 4D  returns 1 (0000ms, 43954ms total)
T4218 2444:716 JLINK_IsHalted()  returns FALSE (0001ms, 43955ms total)
T4218 2444:818 JLINK_IsHalted()  returns FALSE (0001ms, 43955ms total)
T4218 2444:919 JLINK_IsHalted()  returns FALSE (0001ms, 43955ms total)
T4218 2445:020 JLINK_IsHalted()  returns FALSE (0001ms, 43955ms total)
T4218 2445:122 JLINK_IsHalted()  returns FALSE (0000ms, 43954ms total)
T4218 2445:223 JLINK_ReadMemU32(0xE0001004, 0x0001 Items, ...) - Data: 10 81 43 4D  returns 1 (0000ms, 43954ms total)
T4218 2445:224 JLINK_IsHalted()  returns FALSE (0001ms, 43955ms total)
T4218 2445:326 JLINK_IsHalted()  returns FALSE (0001ms, 43955ms total)
T4218 2445:428 JLINK_IsHalted()  returns FALSE (0000ms, 43954ms total)
T4218 2445:529 JLINK_IsHalted()  returns FALSE (0000ms, 43954ms total)
T4218 2445:630 JLINK_IsHalted()  returns FALSE (0000ms, 43954ms total)
T4218 2445:731 JLINK_IsHalted()  returns FALSE (0001ms, 43955ms total)
T4218 2445:832 JLINK_ReadMemU32(0xE0001004, 0x0001 Items, ...) - Data: 10 81 43 4D  returns 1 (0000ms, 43954ms total)
T4218 2445:833 JLINK_IsHalted()  returns FALSE (0000ms, 43954ms total)
T4218 2445:935 JLINK_IsHalted()  returns FALSE (0000ms, 43954ms total)
T4218 2446:036 JLINK_IsHalted()  returns FALSE (0000ms, 43954ms total)
T4218 2446:138 JLINK_IsHalted()  returns FALSE (0000ms, 43954ms total)
T4218 2446:239 JLINK_IsHalted()  returns FALSE (0000ms, 43954ms total)
T4218 2446:340 JLINK_ReadMemU32(0xE0001004, 0x0001 Items, ...) - Data: 10 81 43 4D  returns 1 (0000ms, 43954ms total)
T4218 2446:340 JLINK_IsHalted()  returns FALSE (0001ms, 43955ms total)
T4218 2446:442 JLINK_IsHalted()  returns FALSE (0001ms, 43955ms total)
T3EA4 2446:541 JLINK_SetBPEx(Addr = 0x08008540, Type = 0xFFFFFFF2) -- CPU is running -- CPU is running -- CPU_WriteMem(4 bytes @ 0xE0002000) -- CPU is running -- CPU_WriteMem(4 bytes @ 0xE0002008)  returns 0x00000003 (0002ms, 43956ms total)
T4218 2446:544 JLINK_IsHalted()  returns FALSE (0000ms, 43956ms total)
T4218 2446:645 JLINK_IsHalted()  returns TRUE (0003ms, 43959ms total)
T4218 2446:648 JLINK_Halt()  returns 0x00 (0000ms, 43956ms total)
T4218 2446:648 JLINK_IsHalted()  returns TRUE (0000ms, 43956ms total)
T4218 2446:648 JLINK_IsHalted()  returns TRUE (0000ms, 43956ms total)
T4218 2446:648 JLINK_IsHalted()  returns TRUE (0001ms, 43957ms total)
T4218 2446:649 JLINK_ReadReg(R15 (PC))  returns 0x08008540 (0000ms, 43956ms total)
T4218 2446:649 JLINK_ReadReg(XPSR)  returns 0x61000000 (0000ms, 43956ms total)
T4218 2446:649 JLINK_ClrBPEx(BPHandle = 0x00000003)  returns 0x00 (0000ms, 43956ms total)
T4218 2446:649 JLINK_ReadMemU32(0xE000ED30, 0x0001 Items, ...) -- CPU_ReadMem(4 bytes @ 0xE000ED30) - Data: 02 00 00 00  returns 1 (0001ms, 43957ms total)
T4218 2446:650 JLINK_ReadMemU32(0xE0001028, 0x0001 Items, ...) -- CPU_ReadMem(4 bytes @ 0xE0001028) - Data: 00 00 00 00  returns 1 (0001ms, 43958ms total)
T4218 2446:651 JLINK_ReadMemU32(0xE0001038, 0x0001 Items, ...) -- CPU_ReadMem(4 bytes @ 0xE0001038) - Data: 00 02 00 00  returns 1 (0000ms, 43958ms total)
T4218 2446:652 JLINK_ReadMemU32(0xE0001048, 0x0001 Items, ...) -- CPU_ReadMem(4 bytes @ 0xE0001048) - Data: 00 00 00 00  returns 1 (0000ms, 43959ms total)
T4218 2446:652 JLINK_ReadMemU32(0xE0001058, 0x0001 Items, ...) -- CPU_ReadMem(4 bytes @ 0xE0001058) - Data: 00 00 00 00  returns 1 (0001ms, 43960ms total)
T4218 2446:653 JLINK_ReadReg(R0)  returns 0x00000000 (0000ms, 43960ms total)
T4218 2446:653 JLINK_ReadReg(R1)  returns 0x2000006E (0000ms, 43960ms total)
T4218 2446:653 JLINK_ReadReg(R2)  returns 0x40021000 (0001ms, 43961ms total)
T4218 2446:654 JLINK_ReadReg(R3)  returns 0x00000000 (0000ms, 43961ms total)
T4218 2446:654 JLINK_ReadReg(R4)  returns 0x00000000 (0000ms, 43961ms total)
T4218 2446:654 JLINK_ReadReg(R5)  returns 0x00000000 (0000ms, 43961ms total)
T4218 2446:654 JLINK_ReadReg(R6)  returns 0x832D17F0 (0000ms, 43961ms total)
T4218 2446:654 JLINK_ReadReg(R7)  returns 0x000052E9 (0000ms, 43961ms total)
T4218 2446:654 JLINK_ReadReg(R8)  returns 0x00000000 (0000ms, 43961ms total)
T4218 2446:654 JLINK_ReadReg(R9)  returns 0x09090909 (0000ms, 43961ms total)
T4218 2446:654 JLINK_ReadReg(R10)  returns 0x10101010 (0000ms, 43961ms total)
T4218 2446:654 JLINK_ReadReg(R11)  returns 0x11111111 (0000ms, 43961ms total)
T4218 2446:654 JLINK_ReadReg(R12)  returns 0x000007FE (0000ms, 43961ms total)
T4218 2446:654 JLINK_ReadReg(R13 (SP))  returns 0x20004288 (0000ms, 43961ms total)
T4218 2446:654 JLINK_ReadReg(R14)  returns 0x08008535 (0001ms, 43962ms total)
T4218 2446:655 JLINK_ReadReg(R15 (PC))  returns 0x08008540 (0000ms, 43962ms total)
T4218 2446:655 JLINK_ReadReg(XPSR)  returns 0x61000000 (0000ms, 43962ms total)
T4218 2446:655 JLINK_ReadReg(MSP)  returns 0x20003608 (0000ms, 43962ms total)
T4218 2446:655 JLINK_ReadReg(PSP)  returns 0x20004288 (0000ms, 43962ms total)
T4218 2446:655 JLINK_ReadReg(CFBP)  returns 0x06000000 (0000ms, 43962ms total)
T4218 2446:655 JLINK_ReadReg(FPSCR)  returns 0x00000000 (0003ms, 43965ms total)
T4218 2446:658 JLINK_ReadReg(FPS0)  returns 0x00000000 (0000ms, 43965ms total)
T4218 2446:658 JLINK_ReadReg(FPS1)  returns 0x40590000 (0000ms, 43965ms total)
T4218 2446:658 JLINK_ReadReg(FPS2)  returns 0x00000002 (0000ms, 43965ms total)
T4218 2446:658 JLINK_ReadReg(FPS3)  returns 0x00000003 (0000ms, 43965ms total)
T4218 2446:658 JLINK_ReadReg(FPS4)  returns 0x00000004 (0000ms, 43965ms total)
T4218 2446:658 JLINK_ReadReg(FPS5)  returns 0x00000005 (0000ms, 43965ms total)
T4218 2446:658 JLINK_ReadReg(FPS6)  returns 0x00000006 (0000ms, 43965ms total)
T4218 2446:658 JLINK_ReadReg(FPS7)  returns 0x00000007 (0000ms, 43965ms total)
T4218 2446:658 JLINK_ReadReg(FPS8)  returns 0x00000008 (0000ms, 43965ms total)
T4218 2446:658 JLINK_ReadReg(FPS9)  returns 0x00000009 (0000ms, 43965ms total)
T4218 2446:658 JLINK_ReadReg(FPS10)  returns 0x00000010 (0000ms, 43965ms total)
T4218 2446:658 JLINK_ReadReg(FPS11)  returns 0x00000011 (0000ms, 43965ms total)
T4218 2446:658 JLINK_ReadReg(FPS12)  returns 0x00000012 (0000ms, 43965ms total)
